T3F5C 000:037.207   SEGGER J-Link V6.86 Log File
T3F5C 000:037.317   DLL Compiled: Sep 24 2020 17:31:31
T3F5C 000:037.331   Logging started @ 2024-06-29 14:08
T3F5C 000:037.343 - 37.349ms
T3F5C 000:037.360 JLINK_SetWarnOutHandler(...)
T3F5C 000:037.373 - 0.020ms
T3F5C 000:037.387 JLINK_OpenEx(...)
T3F5C 000:038.525   Firmware: J-Link ARM-OB STM32 compiled Aug 22 2012 19:52:04
T3F5C 000:040.611   Hardware: V7.00
T3F5C 000:040.638   S/N: 20090928
T3F5C 000:040.656   OEM: SEGGER
T3F5C 000:040.673   Feature(s): RDI,FlashDL,FlashBP,JFlash,GDB
T3F5C 000:041.440   TELNET listener socket opened on port 19021
T3F5C 000:041.498   WEBSRV Starting webserver
T3F5C 000:041.643   WEBSRV Webserver running on local port 19080
T3F5C 000:041.665 - 4.285ms returns "O.K."
T3F5C 000:041.687 JLINK_GetEmuCaps()
T3F5C 000:041.700 - 0.018ms returns 0x88EA5833
T3F5C 000:041.723 JLINK_TIF_GetAvailable(...)
T3F5C 000:041.890 - 0.173ms
T3F5C 000:041.905 JLINK_SetErrorOutHandler(...)
T3F5C 000:041.917 - 0.018ms
T3F5C 000:041.944 JLINK_ExecCommand("ProjectFile = "C:\Users\38207\Desktop\Hardwaretask\code\code\USER\JLinkSettings.ini"", ...). 
T3F5C 000:048.570 - 6.646ms returns 0x00
T3F5C 000:058.931 JLINK_ExecCommand("Device = STM32F103C8", ...). 
T3F5C 000:064.609   Device "STM32F103C8" selected.
T3F5C 000:064.975 - 6.014ms returns 0x00
T3F5C 000:064.998 JLINK_GetHardwareVersion()
T3F5C 000:065.010 - 0.017ms returns 70000
T3F5C 000:065.029 JLINK_GetDLLVersion()
T3F5C 000:065.043 - 0.019ms returns 68600
T3F5C 000:065.056 JLINK_GetOEMString(...)
T3F5C 000:065.068 JLINK_GetFirmwareString(...)
T3F5C 000:065.080 - 0.017ms
T3F5C 000:079.308 JLINK_GetDLLVersion()
T3F5C 000:079.346 - 0.044ms returns 68600
T3F5C 000:079.359 JLINK_GetCompileDateTime()
T3F5C 000:079.371 - 0.017ms
T3F5C 000:084.271 JLINK_GetFirmwareString(...)
T3F5C 000:084.297 - 0.032ms
T3F5C 000:089.160 JLINK_GetHardwareVersion()
T3F5C 000:089.199 - 0.045ms returns 70000
T3F5C 000:094.507 JLINK_GetSN()
T3F5C 000:094.532 - 0.031ms returns 20090928
T3F5C 000:100.131 JLINK_GetOEMString(...)
T3F5C 000:109.391 JLINK_TIF_Select(JLINKARM_TIF_SWD)
T3F5C 000:110.464 - 1.087ms returns 0x00
T3F5C 000:110.488 JLINK_HasError()
T3F5C 000:110.511 JLINK_SetSpeed(5000)
T3F5C 000:110.709 - 0.211ms
T3F5C 000:110.732 JLINK_GetId()
T3F5C 000:117.704   Found SW-DP with ID 0x2BA01477
T3F5C 000:141.066   Found SW-DP with ID 0x2BA01477
T3F5C 000:144.505   Old FW that does not support reading DPIDR via DAP jobs
T3F5C 000:153.832   Unknown DP version. Assuming DPv0
T3F5C 000:159.155   Scanning AP map to find all available APs
T3F5C 000:168.941   AP[1]: Stopped AP scan as end of AP map has been reached
T3F5C 000:174.726   AP[0]: AHB-AP (IDR: 0x24770011)
T3F5C 000:180.764   Iterating through AP map to find AHB-AP to use
T3F5C 000:192.950   AP[0]: Core found
T3F5C 000:198.673   AP[0]: AHB-AP ROM base: 0xE00FF000
T3F5C 000:209.106   CPUID register: 0x412FC231. Implementer code: 0x41 (ARM)
T3F5C 000:214.363   Found Cortex-M3 r2p1, Little endian.
T3F5C 000:315.924   -- Max. mem block: 0x00002C18
T3F5C 000:316.047   CPU_ReadMem(4 bytes @ 0xE000EDF0)
T3F5C 000:316.765   CPU_ReadMem(4 bytes @ 0xE0002000)
T3F5C 000:324.447   FPUnit: 6 code (BP) slots and 2 literal slots
T3F5C 000:324.485   CPU_ReadMem(4 bytes @ 0xE000EDFC)
T3F5C 000:324.996   CPU_WriteMem(4 bytes @ 0xE000EDFC)
T3F5C 000:325.462   CPU_ReadMem(4 bytes @ 0xE0001000)
T3F5C 000:325.894   CPU_WriteMem(4 bytes @ 0xE0001000)
T3F5C 000:326.483   CPU_ReadMem(4 bytes @ 0xE000ED88)
T3F5C 000:326.991   CPU_WriteMem(4 bytes @ 0xE000ED88)
T3F5C 000:327.505   CPU_ReadMem(4 bytes @ 0xE000ED88)
T3F5C 000:328.033   CPU_WriteMem(4 bytes @ 0xE000ED88)
T3F5C 000:334.414   CoreSight components:
T3F5C 000:339.887   ROMTbl[0] @ E00FF000
T3F5C 000:339.934   CPU_ReadMem(64 bytes @ 0xE00FF000)
T3F5C 000:341.156   CPU_ReadMem(32 bytes @ 0xE000EFE0)
T3F5C 000:347.039   ROMTbl[0][0]: E000E000, CID: B105E00D, PID: 000BB000 SCS
T3F5C 000:347.097   CPU_ReadMem(32 bytes @ 0xE0001FE0)
T3F5C 000:352.962   ROMTbl[0][1]: E0001000, CID: B105E00D, PID: 003BB002 DWT
T3F5C 000:353.047   CPU_ReadMem(32 bytes @ 0xE0002FE0)
T3F5C 000:360.128   ROMTbl[0][2]: E0002000, CID: B105E00D, PID: 002BB003 FPB
T3F5C 000:360.167   CPU_ReadMem(32 bytes @ 0xE0000FE0)
T3F5C 000:366.376   ROMTbl[0][3]: E0000000, CID: B105E00D, PID: 003BB001 ITM
T3F5C 000:366.435   CPU_ReadMem(32 bytes @ 0xE0040FE0)
T3F5C 000:372.164   ROMTbl[0][4]: E0040000, CID: B105900D, PID: 003BB923 TPIU-Lite
T3F5C 000:372.735 - 262.025ms returns 0x2BA01477
T3F5C 000:372.793 JLINK_GetDLLVersion()
T3F5C 000:372.807 - 0.021ms returns 68600
T3F5C 000:372.822 JLINK_CORE_GetFound()
T3F5C 000:372.836 - 0.020ms returns 0x30000FF
T3F5C 000:372.851 JLINK_GetDebugInfo(0x100 = JLINKARM_ROM_TABLE_ADDR_INDEX)
T3F5C 000:372.866   Value=0xE00FF000
T3F5C 000:372.886 - 0.041ms returns 0
T3F5C 000:377.971 JLINK_GetDebugInfo(0x100 = JLINKARM_ROM_TABLE_ADDR_INDEX)
T3F5C 000:377.992   Value=0xE00FF000
T3F5C 000:378.010 - 0.044ms returns 0
T3F5C 000:378.023 JLINK_GetDebugInfo(0x101 = JLINKARM_DEBUG_INFO_ETM_ADDR_INDEX)
T3F5C 000:378.034   Value=0x00000000
T3F5C 000:378.051 - 0.034ms returns 0
T3F5C 000:378.070 JLINK_ReadMemEx(0xE0041FF0, 0x10 Bytes, Flags = 0x02000004)
T3F5C 000:378.104   CPU_ReadMem(16 bytes @ 0xE0041FF0)
T3F5C 000:378.715   Data:  00 00 00 00 00 00 00 00 00 00 00 00 00 00 00 00
T3F5C 000:378.743 - 0.679ms returns 16 (0x10)
T3F5C 000:378.759 JLINK_GetDebugInfo(0x102 = JLINKARM_DEBUG_INFO_MTB_ADDR_INDEX)
T3F5C 000:378.774   Value=0x00000000
T3F5C 000:378.793 - 0.040ms returns 0
T3F5C 000:378.808 JLINK_GetDebugInfo(0x103 = JLINKARM_DEBUG_INFO_TPIU_ADDR_INDEX)
T3F5C 000:378.821   Value=0xE0040000
T3F5C 000:378.841 - 0.040ms returns 0
T3F5C 000:378.855 JLINK_GetDebugInfo(0x104 = JLINKARM_DEBUG_INFO_ITM_ADDR_INDEX)
T3F5C 000:378.869   Value=0xE0000000
T3F5C 000:378.889 - 0.040ms returns 0
T3F5C 000:378.903 JLINK_GetDebugInfo(0x105 = JLINKARM_DEBUG_INFO_DWT_ADDR_INDEX)
T3F5C 000:378.916   Value=0xE0001000
T3F5C 000:378.936 - 0.040ms returns 0
T3F5C 000:379.005 JLINK_GetDebugInfo(0x106 = JLINKARM_DEBUG_INFO_FPB_ADDR_INDEX)
T3F5C 000:379.025   Value=0xE0002000
T3F5C 000:379.045 - 0.045ms returns 0
T3F5C 000:379.058 JLINK_GetDebugInfo(0x107 = JLINKARM_DEBUG_INFO_NVIC_ADDR_INDEX)
T3F5C 000:379.070   Value=0xE000E000
T3F5C 000:379.087 - 0.035ms returns 0
T3F5C 000:379.100 JLINK_GetDebugInfo(0x10C = JLINKARM_DEBUG_INFO_DBG_ADDR_INDEX)
T3F5C 000:379.111   Value=0xE000EDF0
T3F5C 000:379.130 - 0.037ms returns 0
T3F5C 000:379.146 JLINK_GetDebugInfo(0x01 = Unknown)
T3F5C 000:379.159   Value=0x00000000
T3F5C 000:379.176 - 0.035ms returns 0
T3F5C 000:379.188 JLINK_ReadMemU32(0xE000ED00, 0x1 Items)
T3F5C 000:379.213   CPU_ReadMem(4 bytes @ 0xE000ED00)
T3F5C 000:379.692   Data:  31 C2 2F 41
T3F5C 000:379.717   Debug reg: CPUID
T3F5C 000:379.735 - 0.552ms returns 1 (0x1)
T3F5C 000:379.749 JLINK_GetDebugInfo(0x10F = JLINKARM_DEBUG_INFO_HAS_CORTEX_M_SECURITY_EXT_INDEX)
T3F5C 000:379.761   Value=0x00000000
T3F5C 000:379.778 - 0.034ms returns 0
T3F5C 000:379.790 JLINK_HasError()
T3F5C 000:379.804 JLINK_SetResetType(JLINKARM_CM3_RESET_TYPE_NORMAL)
T3F5C 000:379.815 - 0.017ms returns JLINKARM_CM3_RESET_TYPE_NORMAL
T3F5C 000:379.828 JLINK_Reset()
T3F5C 000:379.854   CPU is running
T3F5C 000:379.872   CPU_WriteMem(4 bytes @ 0xE000EDF0)
T3F5C 000:380.371   CPU is running
T3F5C 000:380.397   CPU_WriteMem(4 bytes @ 0xE000EDFC)
T3F5C 000:385.643   Reset: Halt core after reset via DEMCR.VC_CORERESET.
T3F5C 000:391.923   Reset: Reset device via AIRCR.SYSRESETREQ.
T3F5C 000:391.966   CPU is running
T3F5C 000:391.990   CPU_WriteMem(4 bytes @ 0xE000ED0C)
T3F5C 000:444.990   CPU_ReadMem(4 bytes @ 0xE000EDF0)
T3F5C 000:445.416   CPU_ReadMem(4 bytes @ 0xE000EDF0)
T3F5C 000:445.825   CPU is running
T3F5C 000:445.848   CPU_WriteMem(4 bytes @ 0xE000EDF0)
T3F5C 000:446.509   CPU is running
T3F5C 000:446.536   CPU_WriteMem(4 bytes @ 0xE000EDFC)
T3F5C 000:452.762   CPU_ReadMem(4 bytes @ 0xE000EDF0)
T3F5C 000:456.794   CPU_WriteMem(4 bytes @ 0xE0002000)
T3F5C 000:457.383   CPU_ReadMem(4 bytes @ 0xE000EDFC)
T3F5C 000:458.013   CPU_ReadMem(4 bytes @ 0xE0001000)
T3F5C 000:458.646 - 78.831ms
T3F5C 000:458.676 JLINK_Halt()
T3F5C 000:458.692 - 0.023ms returns 0x00
T3F5C 000:458.709 JLINK_ReadMemU32(0xE000EDF0, 0x1 Items)
T3F5C 000:458.730   CPU_ReadMem(4 bytes @ 0xE000EDF0)
T3F5C 000:459.403   Data:  03 00 03 00
T3F5C 000:459.428   Debug reg: DHCSR
T3F5C 000:459.445 - 0.742ms returns 1 (0x1)
T3F5C 000:459.494 JLINK_WriteU32_64(0xE000EDF0, 0xA05F0003)
T3F5C 000:459.512   Debug reg: DHCSR
T3F5C 000:459.542   CPU_WriteMem(4 bytes @ 0xE000EDF0)
T3F5C 000:460.202 - 0.722ms returns 0 (0x00000000)
T3F5C 000:460.224 JLINK_WriteU32_64(0xE000EDFC, 0x01000000)
T3F5C 000:460.236   Debug reg: DEMCR
T3F5C 000:460.258   CPU_WriteMem(4 bytes @ 0xE000EDFC)
T3F5C 000:460.937 - 0.748ms returns 0 (0x00000000)
T3F5C 000:479.833 JLINK_GetHWStatus(...)
T3F5C 000:480.074 - 0.256ms returns 0
T3F5C 000:493.943 JLINK_GetNumBPUnits(Type = 0xFFFFFF00)
T3F5C 000:493.978 - 0.041ms returns 0x06
T3F5C 000:493.991 JLINK_GetNumBPUnits(Type = 0xF0)
T3F5C 000:494.003 - 0.017ms returns 0x2000
T3F5C 000:494.015 JLINK_GetNumWPUnits()
T3F5C 000:494.031 - 0.021ms returns 4
T3F5C 000:506.933 JLINK_GetSpeed()
T3F5C 000:506.969 - 0.041ms returns 4000
T3F5C 000:515.348 JLINK_ReadMemU32(0xE000E004, 0x1 Items)
T3F5C 000:515.403   CPU_ReadMem(4 bytes @ 0xE000E004)
T3F5C 000:516.074   Data:  01 00 00 00
T3F5C 000:516.099 - 0.757ms returns 1 (0x1)
T3F5C 000:516.114 JLINK_ReadMemU32(0xE000E004, 0x1 Items)
T3F5C 000:516.129   CPU_ReadMem(4 bytes @ 0xE000E004)
T3F5C 000:516.771   Data:  01 00 00 00
T3F5C 000:516.796 - 0.688ms returns 1 (0x1)
T3F5C 000:516.810 JLINK_WriteMemEx(0xE0001000, 0x0000001C Bytes, Flags = 0x02000004)
T3F5C 000:516.823   Data:  01 00 00 00 00 00 00 00 00 00 00 00 00 00 00 00 ...
T3F5C 000:517.058   CPU_WriteMem(28 bytes @ 0xE0001000)
T3F5C 000:518.012 - 1.214ms returns 0x1C
T3F5C 000:518.037 JLINK_Halt()
T3F5C 000:518.049 - 0.017ms returns 0x00
T3F5C 000:518.061 JLINK_IsHalted()
T3F5C 000:518.074 - 0.018ms returns TRUE
T3F5C 000:520.469 JLINK_WriteMem(0x20000000, 0x164 Bytes, ...)
T3F5C 000:520.488   Data:  00 BE 0A E0 0D 78 2D 06 68 40 08 24 40 00 00 D3 ...
T3F5C 000:520.704   CPU_WriteMem(356 bytes @ 0x20000000)
T3F5C 000:525.452 - 5.032ms returns 0x164
T3F5C 000:525.553 JLINK_HasError()
T3F5C 000:525.567 JLINK_WriteReg(R0, 0x08000000)
T3F5C 000:525.581 - 0.020ms returns 0
T3F5C 000:525.594 JLINK_WriteReg(R1, 0x00B71B00)
T3F5C 000:525.615 - 0.027ms returns 0
T3F5C 000:525.627 JLINK_WriteReg(R2, 0x00000001)
T3F5C 000:525.639 - 0.017ms returns 0
T3F5C 000:525.652 JLINK_WriteReg(R3, 0x00000000)
T3F5C 000:525.663 - 0.017ms returns 0
T3F5C 000:525.675 JLINK_WriteReg(R4, 0x00000000)
T3F5C 000:525.687 - 0.017ms returns 0
T3F5C 000:525.699 JLINK_WriteReg(R5, 0x00000000)
T3F5C 000:525.716 - 0.022ms returns 0
T3F5C 000:525.729 JLINK_WriteReg(R6, 0x00000000)
T3F5C 000:525.740 - 0.017ms returns 0
T3F5C 000:525.753 JLINK_WriteReg(R7, 0x00000000)
T3F5C 000:525.764 - 0.017ms returns 0
T3F5C 000:525.776 JLINK_WriteReg(R8, 0x00000000)
T3F5C 000:525.799 - 0.028ms returns 0
T3F5C 000:525.811 JLINK_WriteReg(R9, 0x20000160)
T3F5C 000:525.822 - 0.017ms returns 0
T3F5C 000:525.835 JLINK_WriteReg(R10, 0x00000000)
T3F5C 000:525.846 - 0.017ms returns 0
T3F5C 000:525.859 JLINK_WriteReg(R11, 0x00000000)
T3F5C 000:525.870 - 0.017ms returns 0
T3F5C 000:525.882 JLINK_WriteReg(R12, 0x00000000)
T3F5C 000:525.894 - 0.017ms returns 0
T3F5C 000:525.907 JLINK_WriteReg(R13 (SP), 0x20001000)
T3F5C 000:525.920 - 0.019ms returns 0
T3F5C 000:525.932 JLINK_WriteReg(R14, 0x20000001)
T3F5C 000:525.944 - 0.018ms returns 0
T3F5C 000:525.957 JLINK_WriteReg(R15 (PC), 0x20000038)
T3F5C 000:525.972 - 0.021ms returns 0
T3F5C 000:525.984 JLINK_WriteReg(XPSR, 0x01000000)
T3F5C 000:525.996 - 0.017ms returns 0
T3F5C 000:526.008 JLINK_WriteReg(MSP, 0x20001000)
T3F5C 000:526.020 - 0.017ms returns 0
T3F5C 000:526.032 JLINK_WriteReg(PSP, 0x20001000)
T3F5C 000:526.044 - 0.017ms returns 0
T3F5C 000:526.056 JLINK_WriteReg(CFBP, 0x00000000)
T3F5C 000:526.070 - 0.020ms returns 0
T3F5C 000:526.083 JLINK_SetBPEx(Addr = 0x20000000, Type = 0xFFFFFFF2)
T3F5C 000:526.098   CPU_ReadMem(2 bytes @ 0x20000000)
T3F5C 000:526.740 - 0.670ms returns 0x00000001
T3F5C 000:526.762 JLINK_Go()
T3F5C 000:526.776   CPU_WriteMem(2 bytes @ 0x20000000)
T3F5C 000:527.460   CPU_ReadMem(4 bytes @ 0xE0001000)
T3F5C 000:528.058   CPU_WriteMem(4 bytes @ 0xE0002008)
T3F5C 000:528.084   CPU_WriteMem(4 bytes @ 0xE000200C)
T3F5C 000:528.101   CPU_WriteMem(4 bytes @ 0xE0002010)
T3F5C 000:528.153   CPU_WriteMem(4 bytes @ 0xE0002014)
T3F5C 000:528.176   CPU_WriteMem(4 bytes @ 0xE0002018)
T3F5C 000:528.199   CPU_WriteMem(4 bytes @ 0xE000201C)
T3F5C 000:530.545   CPU_WriteMem(4 bytes @ 0xE0001004)
T3F5C 000:534.520 - 7.772ms
T3F5C 000:534.543 JLINK_IsHalted()
T3F5C 000:538.094   CPU_ReadMem(2 bytes @ 0x20000000)
T3F5C 000:538.751 - 4.220ms returns TRUE
T3F5C 000:538.778 JLINK_ReadReg(R15 (PC))
T3F5C 000:538.796 - 0.025ms returns 0x20000000
T3F5C 000:538.811 JLINK_ClrBPEx(BPHandle = 0x00000001)
T3F5C 000:538.828 - 0.021ms returns 0x00
T3F5C 000:538.842 JLINK_ReadReg(R0)
T3F5C 000:538.857 - 0.021ms returns 0x00000000
T3F5C 000:539.161 JLINK_HasError()
T3F5C 000:539.178 JLINK_WriteReg(R0, 0x08000000)
T3F5C 000:539.191 - 0.019ms returns 0
T3F5C 000:539.204 JLINK_WriteReg(R1, 0x00B71B00)
T3F5C 000:539.216 - 0.018ms returns 0
T3F5C 000:539.229 JLINK_WriteReg(R2, 0x00000001)
T3F5C 000:539.241 - 0.018ms returns 0
T3F5C 000:539.254 JLINK_WriteReg(R3, 0x00000000)
T3F5C 000:539.266 - 0.018ms returns 0
T3F5C 000:539.278 JLINK_WriteReg(R4, 0x00000000)
T3F5C 000:539.290 - 0.018ms returns 0
T3F5C 000:539.303 JLINK_WriteReg(R5, 0x00000000)
T3F5C 000:539.314 - 0.017ms returns 0
T3F5C 000:539.326 JLINK_WriteReg(R6, 0x00000000)
T3F5C 000:539.338 - 0.017ms returns 0
T3F5C 000:539.350 JLINK_WriteReg(R7, 0x00000000)
T3F5C 000:539.362 - 0.018ms returns 0
T3F5C 000:539.375 JLINK_WriteReg(R8, 0x00000000)
T3F5C 000:539.386 - 0.017ms returns 0
T3F5C 000:539.399 JLINK_WriteReg(R9, 0x20000160)
T3F5C 000:539.411 - 0.017ms returns 0
T3F5C 000:539.423 JLINK_WriteReg(R10, 0x00000000)
T3F5C 000:539.435 - 0.018ms returns 0
T3F5C 000:539.448 JLINK_WriteReg(R11, 0x00000000)
T3F5C 000:539.464 - 0.022ms returns 0
T3F5C 000:539.477 JLINK_WriteReg(R12, 0x00000000)
T3F5C 000:539.489 - 0.018ms returns 0
T3F5C 000:539.501 JLINK_WriteReg(R13 (SP), 0x20001000)
T3F5C 000:539.514 - 0.018ms returns 0
T3F5C 000:539.526 JLINK_WriteReg(R14, 0x20000001)
T3F5C 000:539.538 - 0.017ms returns 0
T3F5C 000:539.550 JLINK_WriteReg(R15 (PC), 0x2000007C)
T3F5C 000:539.562 - 0.017ms returns 0
T3F5C 000:539.574 JLINK_WriteReg(XPSR, 0x01000000)
T3F5C 000:539.586 - 0.017ms returns 0
T3F5C 000:539.598 JLINK_WriteReg(MSP, 0x20001000)
T3F5C 000:539.610 - 0.017ms returns 0
T3F5C 000:539.622 JLINK_WriteReg(PSP, 0x20001000)
T3F5C 000:539.634 - 0.017ms returns 0
T3F5C 000:539.646 JLINK_WriteReg(CFBP, 0x00000000)
T3F5C 000:539.657 - 0.017ms returns 0
T3F5C 000:539.670 JLINK_SetBPEx(Addr = 0x20000000, Type = 0xFFFFFFF2)
T3F5C 000:539.682 - 0.018ms returns 0x00000002
T3F5C 000:539.695 JLINK_Go()
T3F5C 000:539.711   CPU_ReadMem(4 bytes @ 0xE0001000)
T3F5C 000:543.622 - 3.991ms
T3F5C 000:543.697 JLINK_IsHalted()
T3F5C 000:544.117 - 0.433ms returns FALSE
T3F5C 000:544.140 JLINK_HasError()
T3F5C 000:562.699 JLINK_IsHalted()
T3F5C 000:566.302   CPU_ReadMem(2 bytes @ 0x20000000)
T3F5C 000:566.926 - 4.276ms returns TRUE
T3F5C 000:566.989 JLINK_ReadReg(R15 (PC))
T3F5C 000:567.009 - 0.025ms returns 0x20000000
T3F5C 000:567.023 JLINK_ClrBPEx(BPHandle = 0x00000002)
T3F5C 000:567.040 - 0.022ms returns 0x00
T3F5C 000:567.054 JLINK_ReadReg(R0)
T3F5C 000:567.070 - 0.021ms returns 0x00000000
T3F5C 000:621.246 JLINK_HasError()
T3F5C 000:621.316 JLINK_WriteReg(R0, 0x00000001)
T3F5C 000:621.354 - 0.052ms returns 0
T3F5C 000:621.385 JLINK_WriteReg(R1, 0x00B71B00)
T3F5C 000:621.420 - 0.052ms returns 0
T3F5C 000:621.453 JLINK_WriteReg(R2, 0x00000001)
T3F5C 000:621.481 - 0.117ms returns 0
T3F5C 000:621.589 JLINK_WriteReg(R3, 0x00000000)
T3F5C 000:621.617 - 0.042ms returns 0
T3F5C 000:621.647 JLINK_WriteReg(R4, 0x00000000)
T3F5C 000:621.675 - 0.042ms returns 0
T3F5C 000:621.705 JLINK_WriteReg(R5, 0x00000000)
T3F5C 000:621.732 - 0.041ms returns 0
T3F5C 000:621.761 JLINK_WriteReg(R6, 0x00000000)
T3F5C 000:621.789 - 0.042ms returns 0
T3F5C 000:621.819 JLINK_WriteReg(R7, 0x00000000)
T3F5C 000:621.847 - 0.042ms returns 0
T3F5C 000:621.877 JLINK_WriteReg(R8, 0x00000000)
T3F5C 000:621.905 - 0.042ms returns 0
T3F5C 000:621.934 JLINK_WriteReg(R9, 0x20000160)
T3F5C 000:621.961 - 0.041ms returns 0
T3F5C 000:621.990 JLINK_WriteReg(R10, 0x00000000)
T3F5C 000:622.019 - 0.041ms returns 0
T3F5C 000:622.047 JLINK_WriteReg(R11, 0x00000000)
T3F5C 000:622.075 - 0.044ms returns 0
T3F5C 000:622.108 JLINK_WriteReg(R12, 0x00000000)
T3F5C 000:622.136 - 0.041ms returns 0
T3F5C 000:622.167 JLINK_WriteReg(R13 (SP), 0x20001000)
T3F5C 000:622.193 - 0.038ms returns 0
T3F5C 000:622.219 JLINK_WriteReg(R14, 0x20000001)
T3F5C 000:622.244 - 0.037ms returns 0
T3F5C 000:622.270 JLINK_WriteReg(R15 (PC), 0x2000006A)
T3F5C 000:622.295 - 0.037ms returns 0
T3F5C 000:622.322 JLINK_WriteReg(XPSR, 0x01000000)
T3F5C 000:622.347 - 0.037ms returns 0
T3F5C 000:622.373 JLINK_WriteReg(MSP, 0x20001000)
T3F5C 000:622.398 - 0.037ms returns 0
T3F5C 000:622.424 JLINK_WriteReg(PSP, 0x20001000)
T3F5C 000:622.458 - 0.076ms returns 0
T3F5C 000:622.518 JLINK_WriteReg(CFBP, 0x00000000)
T3F5C 000:622.547 - 0.044ms returns 0
T3F5C 000:622.582 JLINK_SetBPEx(Addr = 0x20000000, Type = 0xFFFFFFF2)
T3F5C 000:622.619 - 0.057ms returns 0x00000003
T3F5C 000:622.657 JLINK_Go()
T3F5C 000:622.706   CPU_ReadMem(4 bytes @ 0xE0001000)
T3F5C 000:626.427 - 3.808ms
T3F5C 000:626.483 JLINK_IsHalted()
T3F5C 000:629.643   CPU_ReadMem(2 bytes @ 0x20000000)
T3F5C 000:630.118 - 3.646ms returns TRUE
T3F5C 000:630.143 JLINK_ReadReg(R15 (PC))
T3F5C 000:630.164 - 0.029ms returns 0x20000000
T3F5C 000:630.183 JLINK_ClrBPEx(BPHandle = 0x00000003)
T3F5C 000:630.201 - 0.026ms returns 0x00
T3F5C 000:630.219 JLINK_ReadReg(R0)
T3F5C 000:630.247 - 0.036ms returns 0x00000000
T3F5C 000:638.679 JLINK_WriteMem(0x20000000, 0x164 Bytes, ...)
T3F5C 000:638.714   Data:  00 BE 0A E0 0D 78 2D 06 68 40 08 24 40 00 00 D3 ...
T3F5C 000:638.753   CPU_WriteMem(356 bytes @ 0x20000000)
T3F5C 000:643.917 - 5.274ms returns 0x164
T3F5C 000:644.015 JLINK_HasError()
T3F5C 000:644.033 JLINK_WriteReg(R0, 0x08000000)
T3F5C 000:644.050 - 0.027ms returns 0
T3F5C 000:644.067 JLINK_WriteReg(R1, 0x00B71B00)
T3F5C 000:644.079 - 0.018ms returns 0
T3F5C 000:644.092 JLINK_WriteReg(R2, 0x00000002)
T3F5C 000:644.104 - 0.017ms returns 0
T3F5C 000:644.116 JLINK_WriteReg(R3, 0x00000000)
T3F5C 000:644.128 - 0.017ms returns 0
T3F5C 000:644.140 JLINK_WriteReg(R4, 0x00000000)
T3F5C 000:644.152 - 0.017ms returns 0
T3F5C 000:644.164 JLINK_WriteReg(R5, 0x00000000)
T3F5C 000:644.176 - 0.018ms returns 0
T3F5C 000:644.188 JLINK_WriteReg(R6, 0x00000000)
T3F5C 000:644.200 - 0.018ms returns 0
T3F5C 000:644.213 JLINK_WriteReg(R7, 0x00000000)
T3F5C 000:644.225 - 0.017ms returns 0
T3F5C 000:644.237 JLINK_WriteReg(R8, 0x00000000)
T3F5C 000:644.249 - 0.018ms returns 0
T3F5C 000:644.262 JLINK_WriteReg(R9, 0x20000160)
T3F5C 000:644.274 - 0.018ms returns 0
T3F5C 000:644.287 JLINK_WriteReg(R10, 0x00000000)
T3F5C 000:644.299 - 0.017ms returns 0
T3F5C 000:644.311 JLINK_WriteReg(R11, 0x00000000)
T3F5C 000:644.322 - 0.017ms returns 0
T3F5C 000:644.334 JLINK_WriteReg(R12, 0x00000000)
T3F5C 000:644.346 - 0.017ms returns 0
T3F5C 000:644.358 JLINK_WriteReg(R13 (SP), 0x20001000)
T3F5C 000:644.371 - 0.018ms returns 0
T3F5C 000:644.383 JLINK_WriteReg(R14, 0x20000001)
T3F5C 000:644.395 - 0.018ms returns 0
T3F5C 000:644.408 JLINK_WriteReg(R15 (PC), 0x20000038)
T3F5C 000:644.420 - 0.017ms returns 0
T3F5C 000:644.432 JLINK_WriteReg(XPSR, 0x01000000)
T3F5C 000:644.444 - 0.018ms returns 0
T3F5C 000:644.457 JLINK_WriteReg(MSP, 0x20001000)
T3F5C 000:644.468 - 0.017ms returns 0
T3F5C 000:644.523 JLINK_WriteReg(PSP, 0x20001000)
T3F5C 000:644.537 - 0.020ms returns 0
T3F5C 000:644.549 JLINK_WriteReg(CFBP, 0x00000000)
T3F5C 000:644.561 - 0.017ms returns 0
T3F5C 000:644.573 JLINK_SetBPEx(Addr = 0x20000000, Type = 0xFFFFFFF2)
T3F5C 000:644.591   CPU_ReadMem(2 bytes @ 0x20000000)
T3F5C 000:645.037 - 0.480ms returns 0x00000004
T3F5C 000:645.064 JLINK_Go()
T3F5C 000:645.083   CPU_WriteMem(2 bytes @ 0x20000000)
T3F5C 000:645.948   CPU_ReadMem(4 bytes @ 0xE0001000)
T3F5C 000:649.823 - 4.774ms
T3F5C 000:649.847 JLINK_IsHalted()
T3F5C 000:653.277   CPU_ReadMem(2 bytes @ 0x20000000)
T3F5C 000:653.734 - 3.901ms returns TRUE
T3F5C 000:653.760 JLINK_ReadReg(R15 (PC))
T3F5C 000:653.780 - 0.027ms returns 0x20000000
T3F5C 000:653.797 JLINK_ClrBPEx(BPHandle = 0x00000004)
T3F5C 000:653.813 - 0.028ms returns 0x00
T3F5C 000:653.835 JLINK_ReadReg(R0)
T3F5C 000:653.852 - 0.025ms returns 0x00000000
T3F5C 000:654.277 JLINK_WriteMem(0x20000164, 0x29C Bytes, ...)
T3F5C 000:654.298   Data:  F0 07 00 20 D5 01 00 08 E5 14 00 08 4D 0E 00 08 ...
T3F5C 000:654.329   CPU_WriteMem(668 bytes @ 0x20000164)
T3F5C 000:662.550 - 8.298ms returns 0x29C
T3F5C 000:662.590 JLINK_WriteMem(0x20000400, 0x164 Bytes, ...)
T3F5C 000:662.607   Data:  2D 00 00 00 2B 00 00 00 20 00 00 00 2D E9 F0 5F ...
T3F5C 000:662.647   CPU_WriteMem(356 bytes @ 0x20000400)
T3F5C 000:667.477 - 4.918ms returns 0x164
T3F5C 000:667.528 JLINK_HasError()
T3F5C 000:667.547 JLINK_WriteReg(R0, 0x08000000)
T3F5C 000:667.567 - 0.028ms returns 0
T3F5C 000:667.583 JLINK_WriteReg(R1, 0x00000400)
T3F5C 000:667.598 - 0.022ms returns 0
T3F5C 000:667.616 JLINK_WriteReg(R2, 0x20000164)
T3F5C 000:667.634 - 0.025ms returns 0
T3F5C 000:667.650 JLINK_WriteReg(R3, 0x00000000)
T3F5C 000:667.668 - 0.030ms returns 0
T3F5C 000:667.690 JLINK_WriteReg(R4, 0x00000000)
T3F5C 000:667.704 - 0.020ms returns 0
T3F5C 000:667.718 JLINK_WriteReg(R5, 0x00000000)
T3F5C 000:667.731 - 0.019ms returns 0
T3F5C 000:667.744 JLINK_WriteReg(R6, 0x00000000)
T3F5C 000:667.757 - 0.019ms returns 0
T3F5C 000:667.771 JLINK_WriteReg(R7, 0x00000000)
T3F5C 000:667.786 - 0.023ms returns 0
T3F5C 000:667.803 JLINK_WriteReg(R8, 0x00000000)
T3F5C 000:667.820 - 0.025ms returns 0
T3F5C 000:667.837 JLINK_WriteReg(R9, 0x20000160)
T3F5C 000:667.853 - 0.024ms returns 0
T3F5C 000:667.870 JLINK_WriteReg(R10, 0x00000000)
T3F5C 000:667.887 - 0.024ms returns 0
T3F5C 000:667.902 JLINK_WriteReg(R11, 0x00000000)
T3F5C 000:667.915 - 0.019ms returns 0
T3F5C 000:667.929 JLINK_WriteReg(R12, 0x00000000)
T3F5C 000:667.943 - 0.020ms returns 0
T3F5C 000:667.957 JLINK_WriteReg(R13 (SP), 0x20001000)
T3F5C 000:667.971 - 0.021ms returns 0
T3F5C 000:667.985 JLINK_WriteReg(R14, 0x20000001)
T3F5C 000:667.999 - 0.020ms returns 0
T3F5C 000:668.012 JLINK_WriteReg(R15 (PC), 0x200000F4)
T3F5C 000:668.026 - 0.020ms returns 0
T3F5C 000:668.040 JLINK_WriteReg(XPSR, 0x01000000)
T3F5C 000:668.053 - 0.022ms returns 0
T3F5C 000:668.071 JLINK_WriteReg(MSP, 0x20001000)
T3F5C 000:668.088 - 0.025ms returns 0
T3F5C 000:668.105 JLINK_WriteReg(PSP, 0x20001000)
T3F5C 000:668.125 - 0.028ms returns 0
T3F5C 000:668.142 JLINK_WriteReg(CFBP, 0x00000000)
T3F5C 000:668.159 - 0.024ms returns 0
T3F5C 000:668.176 JLINK_SetBPEx(Addr = 0x20000000, Type = 0xFFFFFFF2)
T3F5C 000:668.195 - 0.027ms returns 0x00000005
T3F5C 000:668.213 JLINK_Go()
T3F5C 000:668.246   CPU_ReadMem(4 bytes @ 0xE0001000)
T3F5C 000:672.215 - 4.018ms
T3F5C 000:672.245 JLINK_IsHalted()
T3F5C 000:672.847 - 0.615ms returns FALSE
T3F5C 000:672.873 JLINK_HasError()
T3F5C 000:678.197 JLINK_IsHalted()
T3F5C 000:678.768 - 0.584ms returns FALSE
T3F5C 000:678.790 JLINK_HasError()
T3F5C 000:680.282 JLINK_IsHalted()
T3F5C 000:681.027 - 0.758ms returns FALSE
T3F5C 000:681.049 JLINK_HasError()
T3F5C 000:682.813 JLINK_IsHalted()
T3F5C 000:683.341 - 0.557ms returns FALSE
T3F5C 000:683.399 JLINK_HasError()
T3F5C 000:684.872 JLINK_IsHalted()
T3F5C 000:688.621   CPU_ReadMem(2 bytes @ 0x20000000)
T3F5C 000:689.212 - 4.360ms returns TRUE
T3F5C 000:689.245 JLINK_ReadReg(R15 (PC))
T3F5C 000:689.308 - 0.071ms returns 0x20000000
T3F5C 000:689.327 JLINK_ClrBPEx(BPHandle = 0x00000005)
T3F5C 000:689.345 - 0.026ms returns 0x00
T3F5C 000:689.364 JLINK_ReadReg(R0)
T3F5C 000:689.382 - 0.031ms returns 0x00000000
T3F5C 000:689.841 JLINK_WriteMem(0x20000164, 0x29C Bytes, ...)
T3F5C 000:689.859   Data:  01 20 10 BD 4F F0 FF 30 10 BD 1A B1 D3 07 03 D0 ...
T3F5C 000:689.884   CPU_WriteMem(668 bytes @ 0x20000164)
T3F5C 000:698.138 - 8.321ms returns 0x29C
T3F5C 000:698.177 JLINK_WriteMem(0x20000400, 0x164 Bytes, ...)
T3F5C 000:698.190   Data:  63 FA 00 21 60 15 01 F0 5F FA 17 E0 0D 48 84 42 ...
T3F5C 000:698.215   CPU_WriteMem(356 bytes @ 0x20000400)
T3F5C 000:703.242 - 5.099ms returns 0x164
T3F5C 000:703.296 JLINK_HasError()
T3F5C 000:703.336 JLINK_WriteReg(R0, 0x08000400)
T3F5C 000:703.362 - 0.034ms returns 0
T3F5C 000:703.382 JLINK_WriteReg(R1, 0x00000400)
T3F5C 000:703.399 - 0.025ms returns 0
T3F5C 000:703.416 JLINK_WriteReg(R2, 0x20000164)
T3F5C 000:703.432 - 0.024ms returns 0
T3F5C 000:703.449 JLINK_WriteReg(R3, 0x00000000)
T3F5C 000:703.464 - 0.023ms returns 0
T3F5C 000:703.480 JLINK_WriteReg(R4, 0x00000000)
T3F5C 000:703.497 - 0.024ms returns 0
T3F5C 000:703.514 JLINK_WriteReg(R5, 0x00000000)
T3F5C 000:703.534 - 0.028ms returns 0
T3F5C 000:703.553 JLINK_WriteReg(R6, 0x00000000)
T3F5C 000:703.570 - 0.024ms returns 0
T3F5C 000:703.587 JLINK_WriteReg(R7, 0x00000000)
T3F5C 000:703.602 - 0.023ms returns 0
T3F5C 000:703.624 JLINK_WriteReg(R8, 0x00000000)
T3F5C 000:703.640 - 0.023ms returns 0
T3F5C 000:703.657 JLINK_WriteReg(R9, 0x20000160)
T3F5C 000:703.672 - 0.023ms returns 0
T3F5C 000:703.688 JLINK_WriteReg(R10, 0x00000000)
T3F5C 000:703.704 - 0.024ms returns 0
T3F5C 000:703.721 JLINK_WriteReg(R11, 0x00000000)
T3F5C 000:703.736 - 0.022ms returns 0
T3F5C 000:703.754 JLINK_WriteReg(R12, 0x00000000)
T3F5C 000:703.771 - 0.023ms returns 0
T3F5C 000:703.786 JLINK_WriteReg(R13 (SP), 0x20001000)
T3F5C 000:703.802 - 0.023ms returns 0
T3F5C 000:703.818 JLINK_WriteReg(R14, 0x20000001)
T3F5C 000:703.833 - 0.022ms returns 0
T3F5C 000:703.853 JLINK_WriteReg(R15 (PC), 0x200000F4)
T3F5C 000:703.870 - 0.024ms returns 0
T3F5C 000:703.886 JLINK_WriteReg(XPSR, 0x01000000)
T3F5C 000:703.902 - 0.023ms returns 0
T3F5C 000:703.918 JLINK_WriteReg(MSP, 0x20001000)
T3F5C 000:703.933 - 0.023ms returns 0
T3F5C 000:703.954 JLINK_WriteReg(PSP, 0x20001000)
T3F5C 000:703.970 - 0.024ms returns 0
T3F5C 000:703.987 JLINK_WriteReg(CFBP, 0x00000000)
T3F5C 000:704.002 - 0.022ms returns 0
T3F5C 000:704.018 JLINK_SetBPEx(Addr = 0x20000000, Type = 0xFFFFFFF2)
T3F5C 000:704.035 - 0.024ms returns 0x00000006
T3F5C 000:704.056 JLINK_Go()
T3F5C 000:704.080   CPU_ReadMem(4 bytes @ 0xE0001000)
T3F5C 000:708.302 - 4.269ms
T3F5C 000:708.340 JLINK_IsHalted()
T3F5C 000:708.933 - 0.610ms returns FALSE
T3F5C 000:708.966 JLINK_HasError()
T3F5C 000:710.940 JLINK_IsHalted()
T3F5C 000:711.520 - 0.598ms returns FALSE
T3F5C 000:711.550 JLINK_HasError()
T3F5C 000:713.709 JLINK_IsHalted()
T3F5C 000:714.282 - 0.591ms returns FALSE
T3F5C 000:714.314 JLINK_HasError()
T3F5C 000:715.650 JLINK_IsHalted()
T3F5C 000:716.412 - 0.784ms returns FALSE
T3F5C 000:716.448 JLINK_HasError()
T3F5C 000:718.581 JLINK_IsHalted()
T3F5C 000:719.431 - 0.875ms returns FALSE
T3F5C 000:719.472 JLINK_HasError()
T3F5C 000:721.210 JLINK_IsHalted()
T3F5C 000:724.909   CPU_ReadMem(2 bytes @ 0x20000000)
T3F5C 000:725.669 - 4.488ms returns TRUE
T3F5C 000:725.718 JLINK_ReadReg(R15 (PC))
T3F5C 000:725.748 - 0.042ms returns 0x20000000
T3F5C 000:725.774 JLINK_ClrBPEx(BPHandle = 0x00000006)
T3F5C 000:725.800 - 0.038ms returns 0x00
T3F5C 000:725.832 JLINK_ReadReg(R0)
T3F5C 000:725.858 - 0.039ms returns 0x00000000
T3F5C 000:726.636 JLINK_WriteMem(0x20000164, 0x29C Bytes, ...)
T3F5C 000:726.670   Data:  D6 1F 06 EB 86 06 05 FA 06 F1 08 43 20 63 10 E0 ...
T3F5C 000:726.719   CPU_WriteMem(668 bytes @ 0x20000164)
T3F5C 000:735.109 - 8.521ms returns 0x29C
T3F5C 000:735.188 JLINK_WriteMem(0x20000400, 0x164 Bytes, ...)
T3F5C 000:735.283   Data:  82 79 00 2A 3A D0 0A 46 12 68 03 68 9A 43 0B 46 ...
T3F5C 000:735.340   CPU_WriteMem(356 bytes @ 0x20000400)
T3F5C 000:740.354 - 5.205ms returns 0x164
T3F5C 000:740.433 JLINK_HasError()
T3F5C 000:740.474 JLINK_WriteReg(R0, 0x08000800)
T3F5C 000:740.516 - 0.059ms returns 0
T3F5C 000:740.713 JLINK_WriteReg(R1, 0x00000400)
T3F5C 000:740.783 - 0.088ms returns 0
T3F5C 000:740.822 JLINK_WriteReg(R2, 0x20000164)
T3F5C 000:740.857 - 0.051ms returns 0
T3F5C 000:740.893 JLINK_WriteReg(R3, 0x00000000)
T3F5C 000:740.932 - 0.057ms returns 0
T3F5C 000:740.969 JLINK_WriteReg(R4, 0x00000000)
T3F5C 000:741.004 - 0.052ms returns 0
T3F5C 000:741.040 JLINK_WriteReg(R5, 0x00000000)
T3F5C 000:741.074 - 0.051ms returns 0
T3F5C 000:741.111 JLINK_WriteReg(R6, 0x00000000)
T3F5C 000:741.146 - 0.053ms returns 0
T3F5C 000:741.183 JLINK_WriteReg(R7, 0x00000000)
T3F5C 000:741.218 - 0.052ms returns 0
T3F5C 000:741.254 JLINK_WriteReg(R8, 0x00000000)
T3F5C 000:741.288 - 0.051ms returns 0
T3F5C 000:741.324 JLINK_WriteReg(R9, 0x20000160)
T3F5C 000:741.359 - 0.052ms returns 0
T3F5C 000:741.396 JLINK_WriteReg(R10, 0x00000000)
T3F5C 000:741.431 - 0.053ms returns 0
T3F5C 000:741.468 JLINK_WriteReg(R11, 0x00000000)
T3F5C 000:741.503 - 0.052ms returns 0
T3F5C 000:741.539 JLINK_WriteReg(R12, 0x00000000)
T3F5C 000:741.573 - 0.050ms returns 0
T3F5C 000:741.609 JLINK_WriteReg(R13 (SP), 0x20001000)
T3F5C 000:741.645 - 0.054ms returns 0
T3F5C 000:741.682 JLINK_WriteReg(R14, 0x20000001)
T3F5C 000:741.717 - 0.051ms returns 0
T3F5C 000:741.752 JLINK_WriteReg(R15 (PC), 0x200000F4)
T3F5C 000:741.817 - 0.081ms returns 0
T3F5C 000:741.853 JLINK_WriteReg(XPSR, 0x01000000)
T3F5C 000:741.888 - 0.052ms returns 0
T3F5C 000:741.924 JLINK_WriteReg(MSP, 0x20001000)
T3F5C 000:741.959 - 0.051ms returns 0
T3F5C 000:741.995 JLINK_WriteReg(PSP, 0x20001000)
T3F5C 000:742.030 - 0.052ms returns 0
T3F5C 000:742.066 JLINK_WriteReg(CFBP, 0x00000000)
T3F5C 000:742.101 - 0.051ms returns 0
T3F5C 000:742.137 JLINK_SetBPEx(Addr = 0x20000000, Type = 0xFFFFFFF2)
T3F5C 000:742.177 - 0.056ms returns 0x00000007
T3F5C 000:742.213 JLINK_Go()
T3F5C 000:742.261   CPU_ReadMem(4 bytes @ 0xE0001000)
T3F5C 000:746.499 - 4.320ms
T3F5C 000:746.555 JLINK_IsHalted()
T3F5C 000:747.143 - 0.694ms returns FALSE
T3F5C 000:747.284 JLINK_HasError()
T3F5C 000:750.677 JLINK_IsHalted()
T3F5C 000:751.299 - 0.643ms returns FALSE
T3F5C 000:751.335 JLINK_HasError()
T3F5C 000:752.702 JLINK_IsHalted()
T3F5C 000:753.318 - 0.637ms returns FALSE
T3F5C 000:753.354 JLINK_HasError()
T3F5C 000:754.777 JLINK_IsHalted()
T3F5C 000:755.383 - 0.632ms returns FALSE
T3F5C 000:755.425 JLINK_HasError()
T3F5C 000:757.219 JLINK_IsHalted()
T3F5C 000:757.877 - 0.684ms returns FALSE
T3F5C 000:757.921 JLINK_HasError()
T3F5C 000:759.267 JLINK_IsHalted()
T3F5C 000:762.622   CPU_ReadMem(2 bytes @ 0x20000000)
T3F5C 000:763.118 - 3.870ms returns TRUE
T3F5C 000:763.155 JLINK_ReadReg(R15 (PC))
T3F5C 000:763.185 - 0.050ms returns 0x20000000
T3F5C 000:763.221 JLINK_ClrBPEx(BPHandle = 0x00000007)
T3F5C 000:763.247 - 0.038ms returns 0x00
T3F5C 000:763.272 JLINK_ReadReg(R0)
T3F5C 000:763.296 - 0.036ms returns 0x00000000
T3F5C 000:764.026 JLINK_WriteMem(0x20000164, 0x29C Bytes, ...)
T3F5C 000:764.059   Data:  23 43 02 4C 8D 10 44 F8 25 30 30 BD 08 00 01 40 ...
T3F5C 000:764.105   CPU_WriteMem(668 bytes @ 0x20000164)
T3F5C 000:772.962 - 9.003ms returns 0x29C
T3F5C 000:773.056 JLINK_WriteMem(0x20000400, 0x164 Bytes, ...)
T3F5C 000:773.085   Data:  FF F7 97 FF 10 BD 00 00 00 0C 01 40 10 B5 4F F4 ...
T3F5C 000:773.137   CPU_WriteMem(356 bytes @ 0x20000400)
T3F5C 000:777.876 - 4.843ms returns 0x164
T3F5C 000:777.918 JLINK_HasError()
T3F5C 000:777.941 JLINK_WriteReg(R0, 0x08000C00)
T3F5C 000:777.966 - 0.035ms returns 0
T3F5C 000:777.988 JLINK_WriteReg(R1, 0x00000400)
T3F5C 000:778.008 - 0.030ms returns 0
T3F5C 000:778.029 JLINK_WriteReg(R2, 0x20000164)
T3F5C 000:778.050 - 0.031ms returns 0
T3F5C 000:778.072 JLINK_WriteReg(R3, 0x00000000)
T3F5C 000:778.094 - 0.035ms returns 0
T3F5C 000:778.154 JLINK_WriteReg(R4, 0x00000000)
T3F5C 000:778.174 - 0.031ms returns 0
T3F5C 000:778.196 JLINK_WriteReg(R5, 0x00000000)
T3F5C 000:778.216 - 0.030ms returns 0
T3F5C 000:778.237 JLINK_WriteReg(R6, 0x00000000)
T3F5C 000:778.263 - 0.036ms returns 0
T3F5C 000:778.285 JLINK_WriteReg(R7, 0x00000000)
T3F5C 000:778.306 - 0.032ms returns 0
T3F5C 000:778.328 JLINK_WriteReg(R8, 0x00000000)
T3F5C 000:778.349 - 0.031ms returns 0
T3F5C 000:778.371 JLINK_WriteReg(R9, 0x20000160)
T3F5C 000:778.393 - 0.032ms returns 0
T3F5C 000:778.415 JLINK_WriteReg(R10, 0x00000000)
T3F5C 000:778.436 - 0.031ms returns 0
T3F5C 000:778.458 JLINK_WriteReg(R11, 0x00000000)
T3F5C 000:778.479 - 0.031ms returns 0
T3F5C 000:778.508 JLINK_WriteReg(R12, 0x00000000)
T3F5C 000:778.532 - 0.035ms returns 0
T3F5C 000:778.556 JLINK_WriteReg(R13 (SP), 0x20001000)
T3F5C 000:778.580 - 0.034ms returns 0
T3F5C 000:778.602 JLINK_WriteReg(R14, 0x20000001)
T3F5C 000:778.625 - 0.033ms returns 0
T3F5C 000:778.648 JLINK_WriteReg(R15 (PC), 0x200000F4)
T3F5C 000:778.670 - 0.034ms returns 0
T3F5C 000:778.694 JLINK_WriteReg(XPSR, 0x01000000)
T3F5C 000:778.717 - 0.034ms returns 0
T3F5C 000:778.740 JLINK_WriteReg(MSP, 0x20001000)
T3F5C 000:778.763 - 0.033ms returns 0
T3F5C 000:778.786 JLINK_WriteReg(PSP, 0x20001000)
T3F5C 000:778.808 - 0.033ms returns 0
T3F5C 000:778.831 JLINK_WriteReg(CFBP, 0x00000000)
T3F5C 000:778.853 - 0.033ms returns 0
T3F5C 000:778.877 JLINK_SetBPEx(Addr = 0x20000000, Type = 0xFFFFFFF2)
T3F5C 000:778.901 - 0.034ms returns 0x00000008
T3F5C 000:778.924 JLINK_Go()
T3F5C 000:778.955   CPU_ReadMem(4 bytes @ 0xE0001000)
T3F5C 000:782.950 - 4.049ms
T3F5C 000:782.990 JLINK_IsHalted()
T3F5C 000:783.586 - 0.619ms returns FALSE
T3F5C 000:783.626 JLINK_HasError()
T3F5C 000:786.236 JLINK_IsHalted()
T3F5C 000:786.856 - 0.637ms returns FALSE
T3F5C 000:786.884 JLINK_HasError()
T3F5C 000:788.333 JLINK_IsHalted()
T3F5C 000:788.928 - 0.612ms returns FALSE
T3F5C 000:788.958 JLINK_HasError()
T3F5C 000:790.259 JLINK_IsHalted()
T3F5C 000:790.863 - 0.623ms returns FALSE
T3F5C 000:790.895 JLINK_HasError()
T3F5C 000:792.248 JLINK_IsHalted()
T3F5C 000:792.854 - 0.626ms returns FALSE
T3F5C 000:792.888 JLINK_HasError()
T3F5C 000:794.021 JLINK_IsHalted()
T3F5C 000:797.415   CPU_ReadMem(2 bytes @ 0x20000000)
T3F5C 000:798.085 - 4.081ms returns TRUE
T3F5C 000:798.116 JLINK_ReadReg(R15 (PC))
T3F5C 000:798.150 - 0.042ms returns 0x20000000
T3F5C 000:798.167 JLINK_ClrBPEx(BPHandle = 0x00000008)
T3F5C 000:798.183 - 0.024ms returns 0x00
T3F5C 000:798.200 JLINK_ReadReg(R0)
T3F5C 000:798.216 - 0.023ms returns 0x00000000
T3F5C 000:798.761 JLINK_WriteMem(0x20000164, 0x29C Bytes, ...)
T3F5C 000:798.783   Data:  09 49 C1 F8 8C 01 00 F0 11 F8 01 20 04 49 08 60 ...
T3F5C 000:798.814   CPU_WriteMem(668 bytes @ 0x20000164)
T3F5C 000:807.203 - 8.461ms returns 0x29C
T3F5C 000:807.234 JLINK_WriteMem(0x20000400, 0x164 Bytes, ...)
T3F5C 000:807.249   Data:  03 20 00 F0 8B F8 00 20 00 F0 80 F8 C8 20 00 F0 ...
T3F5C 000:807.278   CPU_WriteMem(356 bytes @ 0x20000400)
T3F5C 000:812.175 - 4.971ms returns 0x164
T3F5C 000:812.223 JLINK_HasError()
T3F5C 000:812.242 JLINK_WriteReg(R0, 0x08001000)
T3F5C 000:812.264 - 0.030ms returns 0
T3F5C 000:812.282 JLINK_WriteReg(R1, 0x00000400)
T3F5C 000:812.299 - 0.025ms returns 0
T3F5C 000:812.316 JLINK_WriteReg(R2, 0x20000164)
T3F5C 000:812.333 - 0.027ms returns 0
T3F5C 000:812.353 JLINK_WriteReg(R3, 0x00000000)
T3F5C 000:812.371 - 0.026ms returns 0
T3F5C 000:812.388 JLINK_WriteReg(R4, 0x00000000)
T3F5C 000:812.405 - 0.025ms returns 0
T3F5C 000:812.428 JLINK_WriteReg(R5, 0x00000000)
T3F5C 000:812.445 - 0.026ms returns 0
T3F5C 000:812.464 JLINK_WriteReg(R6, 0x00000000)
T3F5C 000:812.481 - 0.026ms returns 0
T3F5C 000:812.499 JLINK_WriteReg(R7, 0x00000000)
T3F5C 000:812.517 - 0.026ms returns 0
T3F5C 000:812.535 JLINK_WriteReg(R8, 0x00000000)
T3F5C 000:812.552 - 0.025ms returns 0
T3F5C 000:812.571 JLINK_WriteReg(R9, 0x20000160)
T3F5C 000:812.588 - 0.028ms returns 0
T3F5C 000:812.612 JLINK_WriteReg(R10, 0x00000000)
T3F5C 000:812.629 - 0.026ms returns 0
T3F5C 000:812.647 JLINK_WriteReg(R11, 0x00000000)
T3F5C 000:812.665 - 0.026ms returns 0
T3F5C 000:812.683 JLINK_WriteReg(R12, 0x00000000)
T3F5C 000:812.700 - 0.025ms returns 0
T3F5C 000:812.718 JLINK_WriteReg(R13 (SP), 0x20001000)
T3F5C 000:812.736 - 0.027ms returns 0
T3F5C 000:812.755 JLINK_WriteReg(R14, 0x20000001)
T3F5C 000:812.772 - 0.050ms returns 0
T3F5C 000:812.815 JLINK_WriteReg(R15 (PC), 0x200000F4)
T3F5C 000:812.833 - 0.026ms returns 0
T3F5C 000:812.851 JLINK_WriteReg(XPSR, 0x01000000)
T3F5C 000:812.869 - 0.025ms returns 0
T3F5C 000:812.886 JLINK_WriteReg(MSP, 0x20001000)
T3F5C 000:812.904 - 0.026ms returns 0
T3F5C 000:812.923 JLINK_WriteReg(PSP, 0x20001000)
T3F5C 000:812.940 - 0.026ms returns 0
T3F5C 000:812.958 JLINK_WriteReg(CFBP, 0x00000000)
T3F5C 000:812.976 - 0.026ms returns 0
T3F5C 000:812.995 JLINK_SetBPEx(Addr = 0x20000000, Type = 0xFFFFFFF2)
T3F5C 000:813.014 - 0.027ms returns 0x00000009
T3F5C 000:813.045 JLINK_Go()
T3F5C 000:813.071   CPU_ReadMem(4 bytes @ 0xE0001000)
T3F5C 000:817.176 - 4.162ms
T3F5C 000:817.228 JLINK_IsHalted()
T3F5C 000:817.820 - 0.610ms returns FALSE
T3F5C 000:817.853 JLINK_HasError()
T3F5C 000:819.070 JLINK_IsHalted()
T3F5C 000:819.614 - 0.563ms returns FALSE
T3F5C 000:819.646 JLINK_HasError()
T3F5C 000:821.170 JLINK_IsHalted()
T3F5C 000:821.827 - 0.676ms returns FALSE
T3F5C 000:821.860 JLINK_HasError()
T3F5C 000:823.132 JLINK_IsHalted()
T3F5C 000:823.747 - 0.636ms returns FALSE
T3F5C 000:823.782 JLINK_HasError()
T3F5C 000:825.464 JLINK_IsHalted()
T3F5C 000:826.163 - 0.720ms returns FALSE
T3F5C 000:826.198 JLINK_HasError()
T3F5C 000:827.534 JLINK_IsHalted()
T3F5C 000:828.196 - 0.682ms returns FALSE
T3F5C 000:828.229 JLINK_HasError()
T3F5C 000:829.550 JLINK_IsHalted()
T3F5C 000:833.090   CPU_ReadMem(2 bytes @ 0x20000000)
T3F5C 000:833.742 - 4.218ms returns TRUE
T3F5C 000:833.785 JLINK_ReadReg(R15 (PC))
T3F5C 000:833.813 - 0.038ms returns 0x20000000
T3F5C 000:833.836 JLINK_ClrBPEx(BPHandle = 0x00000009)
T3F5C 000:833.859 - 0.033ms returns 0x00
T3F5C 000:833.882 JLINK_ReadReg(R0)
T3F5C 000:833.905 - 0.033ms returns 0x00000000
T3F5C 000:834.634 JLINK_WriteMem(0x20000164, 0x29C Bytes, ...)
T3F5C 000:834.667   Data:  70 BD 70 B5 04 46 B4 F5 7A 7F 01 DD 4F F4 7A 74 ...
T3F5C 000:834.708   CPU_WriteMem(668 bytes @ 0x20000164)
T3F5C 000:843.220 - 8.610ms returns 0x29C
T3F5C 000:843.258 JLINK_WriteMem(0x20000400, 0x164 Bytes, ...)
T3F5C 000:843.273   Data:  00 F0 7E F9 00 21 80 20 00 F0 7A F9 00 21 D8 20 ...
T3F5C 000:843.303   CPU_WriteMem(356 bytes @ 0x20000400)
T3F5C 000:848.191 - 4.970ms returns 0x164
T3F5C 000:848.250 JLINK_HasError()
T3F5C 000:848.273 JLINK_WriteReg(R0, 0x08001400)
T3F5C 000:848.298 - 0.034ms returns 0
T3F5C 000:848.318 JLINK_WriteReg(R1, 0x00000400)
T3F5C 000:848.344 - 0.035ms returns 0
T3F5C 000:848.363 JLINK_WriteReg(R2, 0x20000164)
T3F5C 000:848.382 - 0.028ms returns 0
T3F5C 000:848.402 JLINK_WriteReg(R3, 0x00000000)
T3F5C 000:848.421 - 0.028ms returns 0
T3F5C 000:848.441 JLINK_WriteReg(R4, 0x00000000)
T3F5C 000:848.460 - 0.028ms returns 0
T3F5C 000:848.479 JLINK_WriteReg(R5, 0x00000000)
T3F5C 000:848.498 - 0.028ms returns 0
T3F5C 000:848.518 JLINK_WriteReg(R6, 0x00000000)
T3F5C 000:848.537 - 0.029ms returns 0
T3F5C 000:848.557 JLINK_WriteReg(R7, 0x00000000)
T3F5C 000:848.576 - 0.028ms returns 0
T3F5C 000:848.596 JLINK_WriteReg(R8, 0x00000000)
T3F5C 000:848.615 - 0.029ms returns 0
T3F5C 000:848.636 JLINK_WriteReg(R9, 0x20000160)
T3F5C 000:848.656 - 0.030ms returns 0
T3F5C 000:848.677 JLINK_WriteReg(R10, 0x00000000)
T3F5C 000:848.697 - 0.029ms returns 0
T3F5C 000:848.718 JLINK_WriteReg(R11, 0x00000000)
T3F5C 000:848.737 - 0.029ms returns 0
T3F5C 000:848.758 JLINK_WriteReg(R12, 0x00000000)
T3F5C 000:848.777 - 0.028ms returns 0
T3F5C 000:848.797 JLINK_WriteReg(R13 (SP), 0x20001000)
T3F5C 000:848.818 - 0.031ms returns 0
T3F5C 000:848.839 JLINK_WriteReg(R14, 0x20000001)
T3F5C 000:848.861 - 0.034ms returns 0
T3F5C 000:848.883 JLINK_WriteReg(R15 (PC), 0x200000F4)
T3F5C 000:848.903 - 0.029ms returns 0
T3F5C 000:848.923 JLINK_WriteReg(XPSR, 0x01000000)
T3F5C 000:848.943 - 0.029ms returns 0
T3F5C 000:848.963 JLINK_WriteReg(MSP, 0x20001000)
T3F5C 000:848.983 - 0.028ms returns 0
T3F5C 000:849.003 JLINK_WriteReg(PSP, 0x20001000)
T3F5C 000:849.023 - 0.029ms returns 0
T3F5C 000:849.043 JLINK_WriteReg(CFBP, 0x00000000)
T3F5C 000:849.064 - 0.029ms returns 0
T3F5C 000:849.084 JLINK_SetBPEx(Addr = 0x20000000, Type = 0xFFFFFFF2)
T3F5C 000:849.106 - 0.032ms returns 0x0000000A
T3F5C 000:849.128 JLINK_Go()
T3F5C 000:849.157   CPU_ReadMem(4 bytes @ 0xE0001000)
T3F5C 000:853.191 - 4.084ms
T3F5C 000:853.228 JLINK_IsHalted()
T3F5C 000:853.813 - 0.606ms returns FALSE
T3F5C 000:853.851 JLINK_HasError()
T3F5C 000:855.261 JLINK_IsHalted()
T3F5C 000:855.722 - 0.475ms returns FALSE
T3F5C 000:855.749 JLINK_HasError()
T3F5C 000:857.527 JLINK_IsHalted()
T3F5C 000:858.197 - 0.688ms returns FALSE
T3F5C 000:858.228 JLINK_HasError()
T3F5C 000:859.561 JLINK_IsHalted()
T3F5C 000:860.149 - 0.608ms returns FALSE
T3F5C 000:860.182 JLINK_HasError()
T3F5C 000:861.593 JLINK_IsHalted()
T3F5C 000:862.252 - 0.680ms returns FALSE
T3F5C 000:862.287 JLINK_HasError()
T3F5C 000:863.646 JLINK_IsHalted()
T3F5C 000:864.330 - 0.707ms returns FALSE
T3F5C 000:864.368 JLINK_HasError()
T3F5C 000:865.628 JLINK_IsHalted()
T3F5C 000:869.140   CPU_ReadMem(2 bytes @ 0x20000000)
T3F5C 000:870.165 - 4.592ms returns TRUE
T3F5C 000:870.248 JLINK_ReadReg(R15 (PC))
T3F5C 000:870.307 - 0.074ms returns 0x20000000
T3F5C 000:870.337 JLINK_ClrBPEx(BPHandle = 0x0000000A)
T3F5C 000:870.366 - 0.041ms returns 0x00
T3F5C 000:870.393 JLINK_ReadReg(R0)
T3F5C 000:870.428 - 0.048ms returns 0x00000000
T3F5C 000:871.237 JLINK_WriteMem(0x20000164, 0x29C Bytes, ...)
T3F5C 000:871.272   Data:  70 1C C6 B2 A8 5D 00 28 EC D1 BD E8 F0 81 00 00 ...
T3F5C 000:871.318   CPU_WriteMem(668 bytes @ 0x20000164)
T3F5C 000:881.455 - 10.263ms returns 0x29C
T3F5C 000:881.565 JLINK_WriteMem(0x20000400, 0x164 Bytes, ...)
T3F5C 000:881.601   Data:  00 20 AD F8 1A 00 AD F8 1E 00 06 A9 16 48 00 F0 ...
T3F5C 000:881.653   CPU_WriteMem(356 bytes @ 0x20000400)
T3F5C 000:886.531 - 4.989ms returns 0x164
T3F5C 000:886.569 JLINK_HasError()
T3F5C 000:886.591 JLINK_WriteReg(R0, 0x08001800)
T3F5C 000:886.615 - 0.032ms returns 0
T3F5C 000:886.634 JLINK_WriteReg(R1, 0x00000400)
T3F5C 000:886.654 - 0.028ms returns 0
T3F5C 000:886.674 JLINK_WriteReg(R2, 0x20000164)
T3F5C 000:886.692 - 0.028ms returns 0
T3F5C 000:886.712 JLINK_WriteReg(R3, 0x00000000)
T3F5C 000:886.738 - 0.035ms returns 0
T3F5C 000:886.757 JLINK_WriteReg(R4, 0x00000000)
T3F5C 000:886.775 - 0.027ms returns 0
T3F5C 000:886.795 JLINK_WriteReg(R5, 0x00000000)
T3F5C 000:886.813 - 0.027ms returns 0
T3F5C 000:886.832 JLINK_WriteReg(R6, 0x00000000)
T3F5C 000:886.850 - 0.027ms returns 0
T3F5C 000:886.870 JLINK_WriteReg(R7, 0x00000000)
T3F5C 000:886.888 - 0.027ms returns 0
T3F5C 000:886.907 JLINK_WriteReg(R8, 0x00000000)
T3F5C 000:886.925 - 0.027ms returns 0
T3F5C 000:886.944 JLINK_WriteReg(R9, 0x20000160)
T3F5C 000:886.962 - 0.027ms returns 0
T3F5C 000:886.981 JLINK_WriteReg(R10, 0x00000000)
T3F5C 000:886.999 - 0.026ms returns 0
T3F5C 000:887.018 JLINK_WriteReg(R11, 0x00000000)
T3F5C 000:887.036 - 0.027ms returns 0
T3F5C 000:887.055 JLINK_WriteReg(R12, 0x00000000)
T3F5C 000:887.073 - 0.026ms returns 0
T3F5C 000:887.092 JLINK_WriteReg(R13 (SP), 0x20001000)
T3F5C 000:887.111 - 0.028ms returns 0
T3F5C 000:887.130 JLINK_WriteReg(R14, 0x20000001)
T3F5C 000:887.155 - 0.034ms returns 0
T3F5C 000:887.175 JLINK_WriteReg(R15 (PC), 0x200000F4)
T3F5C 000:887.193 - 0.027ms returns 0
T3F5C 000:887.212 JLINK_WriteReg(XPSR, 0x01000000)
T3F5C 000:887.231 - 0.028ms returns 0
T3F5C 000:887.250 JLINK_WriteReg(MSP, 0x20001000)
T3F5C 000:887.268 - 0.026ms returns 0
T3F5C 000:887.286 JLINK_WriteReg(PSP, 0x20001000)
T3F5C 000:887.304 - 0.026ms returns 0
T3F5C 000:887.322 JLINK_WriteReg(CFBP, 0x00000000)
T3F5C 000:887.342 - 0.030ms returns 0
T3F5C 000:887.363 JLINK_SetBPEx(Addr = 0x20000000, Type = 0xFFFFFFF2)
T3F5C 000:887.382 - 0.028ms returns 0x0000000B
T3F5C 000:887.401 JLINK_Go()
T3F5C 000:887.427   CPU_ReadMem(4 bytes @ 0xE0001000)
T3F5C 000:891.434 - 4.069ms
T3F5C 000:891.484 JLINK_IsHalted()
T3F5C 000:892.088 - 0.625ms returns FALSE
T3F5C 000:892.124 JLINK_HasError()
T3F5C 000:895.165 JLINK_IsHalted()
T3F5C 000:895.784 - 0.636ms returns FALSE
T3F5C 000:895.812 JLINK_HasError()
T3F5C 000:897.324 JLINK_IsHalted()
T3F5C 000:897.998 - 0.692ms returns FALSE
T3F5C 000:898.029 JLINK_HasError()
T3F5C 000:899.403 JLINK_IsHalted()
T3F5C 000:900.024 - 0.655ms returns FALSE
T3F5C 000:900.071 JLINK_HasError()
T3F5C 000:902.231 JLINK_IsHalted()
T3F5C 000:902.870 - 0.656ms returns FALSE
T3F5C 000:902.899 JLINK_HasError()
T3F5C 000:904.922 JLINK_IsHalted()
T3F5C 000:908.498   CPU_ReadMem(2 bytes @ 0x20000000)
T3F5C 000:909.160 - 4.261ms returns TRUE
T3F5C 000:909.240 JLINK_ReadReg(R15 (PC))
T3F5C 000:909.265 - 0.034ms returns 0x20000000
T3F5C 000:909.285 JLINK_ClrBPEx(BPHandle = 0x0000000B)
T3F5C 000:909.305 - 0.029ms returns 0x00
T3F5C 000:909.325 JLINK_ReadReg(R0)
T3F5C 000:909.344 - 0.028ms returns 0x00000000
T3F5C 000:910.002 JLINK_WriteMem(0x20000164, 0x29C Bytes, ...)
T3F5C 000:910.030   Data:  DD 40 45 60 0F 4D 6D 68 05 F4 E0 61 09 0A 10 4D ...
T3F5C 000:910.069   CPU_WriteMem(668 bytes @ 0x20000164)
T3F5C 000:918.470 - 8.492ms returns 0x29C
T3F5C 000:918.508 JLINK_WriteMem(0x20000400, 0x164 Bytes, ...)
T3F5C 000:918.525   Data:  02 8B 01 8C 4F F6 FF 77 07 EA 04 16 40 F6 FF 47 ...
T3F5C 000:918.565   CPU_WriteMem(356 bytes @ 0x20000400)
T3F5C 000:923.363 - 4.870ms returns 0x164
T3F5C 000:923.388 JLINK_HasError()
T3F5C 000:923.402 JLINK_WriteReg(R0, 0x08001C00)
T3F5C 000:923.416 - 0.020ms returns 0
T3F5C 000:923.429 JLINK_WriteReg(R1, 0x00000400)
T3F5C 000:923.440 - 0.017ms returns 0
T3F5C 000:923.453 JLINK_WriteReg(R2, 0x20000164)
T3F5C 000:923.464 - 0.017ms returns 0
T3F5C 000:923.477 JLINK_WriteReg(R3, 0x00000000)
T3F5C 000:923.488 - 0.017ms returns 0
T3F5C 000:923.500 JLINK_WriteReg(R4, 0x00000000)
T3F5C 000:923.512 - 0.017ms returns 0
T3F5C 000:923.524 JLINK_WriteReg(R5, 0x00000000)
T3F5C 000:923.536 - 0.017ms returns 0
T3F5C 000:923.548 JLINK_WriteReg(R6, 0x00000000)
T3F5C 000:923.560 - 0.017ms returns 0
T3F5C 000:923.572 JLINK_WriteReg(R7, 0x00000000)
T3F5C 000:923.584 - 0.018ms returns 0
T3F5C 000:923.597 JLINK_WriteReg(R8, 0x00000000)
T3F5C 000:923.608 - 0.017ms returns 0
T3F5C 000:923.621 JLINK_WriteReg(R9, 0x20000160)
T3F5C 000:923.633 - 0.018ms returns 0
T3F5C 000:923.645 JLINK_WriteReg(R10, 0x00000000)
T3F5C 000:923.657 - 0.018ms returns 0
T3F5C 000:923.670 JLINK_WriteReg(R11, 0x00000000)
T3F5C 000:923.682 - 0.017ms returns 0
T3F5C 000:923.698 JLINK_WriteReg(R12, 0x00000000)
T3F5C 000:923.710 - 0.017ms returns 0
T3F5C 000:923.722 JLINK_WriteReg(R13 (SP), 0x20001000)
T3F5C 000:923.735 - 0.018ms returns 0
T3F5C 000:923.747 JLINK_WriteReg(R14, 0x20000001)
T3F5C 000:923.759 - 0.018ms returns 0
T3F5C 000:923.772 JLINK_WriteReg(R15 (PC), 0x200000F4)
T3F5C 000:923.783 - 0.017ms returns 0
T3F5C 000:923.796 JLINK_WriteReg(XPSR, 0x01000000)
T3F5C 000:923.808 - 0.018ms returns 0
T3F5C 000:923.820 JLINK_WriteReg(MSP, 0x20001000)
T3F5C 000:923.832 - 0.017ms returns 0
T3F5C 000:923.844 JLINK_WriteReg(PSP, 0x20001000)
T3F5C 000:923.855 - 0.017ms returns 0
T3F5C 000:923.868 JLINK_WriteReg(CFBP, 0x00000000)
T3F5C 000:923.879 - 0.017ms returns 0
T3F5C 000:923.891 JLINK_SetBPEx(Addr = 0x20000000, Type = 0xFFFFFFF2)
T3F5C 000:923.904 - 0.018ms returns 0x0000000C
T3F5C 000:923.917 JLINK_Go()
T3F5C 000:923.934   CPU_ReadMem(4 bytes @ 0xE0001000)
T3F5C 000:927.958 - 4.054ms
T3F5C 000:927.980 JLINK_IsHalted()
T3F5C 000:928.571 - 0.638ms returns FALSE
T3F5C 000:928.628 JLINK_HasError()
T3F5C 000:930.425 JLINK_IsHalted()
T3F5C 000:930.917 - 0.505ms returns FALSE
T3F5C 000:930.939 JLINK_HasError()
T3F5C 000:932.454 JLINK_IsHalted()
T3F5C 000:933.198 - 0.759ms returns FALSE
T3F5C 000:933.223 JLINK_HasError()
T3F5C 000:934.416 JLINK_IsHalted()
T3F5C 000:935.044 - 0.641ms returns FALSE
T3F5C 000:935.070 JLINK_HasError()
T3F5C 000:936.500 JLINK_IsHalted()
T3F5C 000:937.110 - 0.624ms returns FALSE
T3F5C 000:937.135 JLINK_HasError()
T3F5C 000:938.484 JLINK_IsHalted()
T3F5C 000:939.176 - 0.706ms returns FALSE
T3F5C 000:939.201 JLINK_HasError()
T3F5C 000:940.415 JLINK_IsHalted()
T3F5C 000:943.964   CPU_ReadMem(2 bytes @ 0x20000000)
T3F5C 000:944.587 - 4.191ms returns TRUE
T3F5C 000:944.622 JLINK_ReadReg(R15 (PC))
T3F5C 000:944.643 - 0.030ms returns 0x20000000
T3F5C 000:944.662 JLINK_ClrBPEx(BPHandle = 0x0000000C)
T3F5C 000:944.679 - 0.026ms returns 0x00
T3F5C 000:944.697 JLINK_ReadReg(R0)
T3F5C 000:944.715 - 0.025ms returns 0x00000000
T3F5C 000:945.369 JLINK_WriteMem(0x20000164, 0x29C Bytes, ...)
T3F5C 000:945.394   Data:  05 D0 0E 4F B8 42 02 D0 0D 4F B8 42 06 D1 4D F6 ...
T3F5C 000:945.426   CPU_WriteMem(668 bytes @ 0x20000164)
T3F5C 000:953.928 - 8.601ms returns 0x29C
T3F5C 000:953.993 JLINK_WriteMem(0x20000400, 0x164 Bytes, ...)
T3F5C 000:954.041   Data:  83 80 04 83 CD 88 85 86 02 84 70 BD 00 2C 01 40 ...
T3F5C 000:954.099   CPU_WriteMem(356 bytes @ 0x20000400)
T3F5C 000:959.028 - 5.078ms returns 0x164
T3F5C 000:959.087 JLINK_HasError()
T3F5C 000:959.108 JLINK_WriteReg(R0, 0x08002000)
T3F5C 000:959.132 - 0.032ms returns 0
T3F5C 000:959.152 JLINK_WriteReg(R1, 0x00000400)
T3F5C 000:959.171 - 0.028ms returns 0
T3F5C 000:959.190 JLINK_WriteReg(R2, 0x20000164)
T3F5C 000:959.209 - 0.028ms returns 0
T3F5C 000:959.229 JLINK_WriteReg(R3, 0x00000000)
T3F5C 000:959.248 - 0.029ms returns 0
T3F5C 000:959.268 JLINK_WriteReg(R4, 0x00000000)
T3F5C 000:959.287 - 0.029ms returns 0
T3F5C 000:959.307 JLINK_WriteReg(R5, 0x00000000)
T3F5C 000:959.326 - 0.027ms returns 0
